#  HZ   S   RI   R     50.00 
! Rohde & Schwarz Vector Network Analyzer 
! Rohde-Schwarz,ZNA43-2Port,1332450042101232,2.61
! Created: UTC 4/2/2026, 4:23:51 PM
! freq[Hz]                re:S11                  im:S11                  re:S21                  im:S21                  re:S12                  im:S12                  re:S22                  im:S22
 1.000000000000000E7     1.617862577457192      -1.751371892103543E-1    4.129364379840901      -3.937950586460024      -9.293734287896707E-2    1.148826925387612E-1    7.206626326648543E-1   -7.285300042581718E-1
 2.000000000000000E7     6.568750158728903E-1   -6.611919776343586E-1   -3.863617800844943      -9.920103665525529       2.110761547975671E-2    1.715087659876634E-2    1.967418117578355E-1   -4.780687861201242E-1
 3.000000000000000E7     2.479931077402032E-1   -7.732565275028777E-1   -8.732437104947049      -8.627095555517691      -2.317588056914299E-2    7.953083272989570E-3    4.930461818969185E-2   -5.254971660255229E-1
 4.000000000000000E7     9.548656672846816E-2   -5.362926539238760E-1   -1.120615885663507E1    -6.724190175336286       6.534695315452345E-3    6.577598362278152E-2   -1.286348453514947E-2   -2.846589161371355E-1
 5.000000000000000E7     4.841629442955105E-2   -5.052484968756574E-1   -1.228173430323901E1    -5.353248885305173       3.302278889885323E-2    5.170271113601957E-2   -2.965808321812070E-2   -2.866910288453517E-1
 6.000000000000000E7    -9.198661220358714E-3   -4.024402494104953E-1   -1.296599921356716E1    -3.993064347906909       2.069187288999536E-2    4.314603794839277E-2   -3.119132443377878E-2   -2.358605044639368E-1
 7.000000000000000E7    -4.721625112667023E-2   -3.338461475917761E-1   -1.329375074487097E1    -3.073105929802127       3.633222069815074E-2    2.776979890677262E-2   -5.860571243482372E-2   -2.033267639092108E-1
 8.000000000000000E7    -7.657170932798751E-2   -3.248606215814732E-1   -1.356158988179319E1    -2.056505149883986       3.453823888550542E-2    2.496928459430851E-2   -9.258403098944672E-2   -1.882204728667174E-1
 9.000000000000000E7    -9.840623077097321E-2   -2.630221365585574E-1   -1.362033184193689E1    -1.410716442209921       4.916635233162270E-2    2.687543082349822E-2   -7.347272350008524E-2   -1.398845961548017E-1
 1.000000000000000E8    -1.084041414646312E-1   -2.496102841107574E-1   -1.371294028143888E1    -7.329781714586037E-1    5.508972875602100E-2    1.838420489497674E-2   -8.100824712712651E-2   -1.450349304504507E-1
 1.100000000000000E8    -1.115053536822061E-1   -2.192403130906641E-1   -1.382004940820582E1    -1.562062341746496E-1    5.322606575031830E-2    2.440738490875533E-2   -7.587052610927693E-2   -1.289696788763758E-1
 1.200000000000000E8    -1.245259406541646E-1   -2.032809405186431E-1   -1.377645716649319E1     3.198457017428424E-1    5.444935847277420E-2    1.788214706685808E-2   -9.791972795137688E-2   -1.090984553460423E-1
 1.300000000000000E8    -1.265674548993177E-1   -1.742993020089162E-1   -1.374348435694851E1     7.993109678554650E-1    5.337775443484850E-2    1.172513083675866E-2   -8.406696597621005E-2   -1.007752578614278E-1
 1.400000000000000E8    -1.429210786848266E-1   -1.681053766164783E-1   -1.365847419390557E1     1.276693299276637       5.350150232435193E-2    1.702412349896130E-2   -9.774482141113316E-2   -8.641372955056183E-2
 1.500000000000000E8    -1.411893234563364E-1   -1.409007929556105E-1   -1.364944917495978E1     1.670271007354708       5.597081334056950E-2    1.364665103465444E-2   -9.677976468567139E-2   -7.733403082169482E-2
 1.600000000000000E8    -1.382460625480437E-1   -1.462799287271382E-1   -1.360533391904027E1     2.058487310145460       5.178451937844854E-2    3.963730806500321E-3   -1.011109858713732E-1   -8.768521247455488E-2
 1.700000000000000E8    -1.456088886060162E-1   -1.327648841660028E-1   -1.362078731749411E1     2.528022418767562       5.474155289065980E-2    2.762490965654862E-3   -1.061300423859826E-1   -7.795939821371042E-2
 1.800000000000000E8    -1.394781487851803E-1   -1.114719950305622E-1   -1.344724701972050E1     2.895683267298798       5.600091846263843E-2    4.868749227135472E-3   -9.782956526817088E-2   -6.998633760869033E-2
 1.900000000000000E8    -1.441192313100001E-1   -1.003943508006293E-1   -1.339277028312686E1     3.199072121371524       5.641487410815130E-2    1.795403240153269E-3   -9.568884380066106E-2   -6.218696700350804E-2
 2.000000000000000E8    -1.391355751593444E-1   -8.585715818596848E-2   -1.323435048479601E1     3.532852804785473       5.450488213148241E-2    1.803141825869441E-3   -9.498143555153804E-2   -6.083492259460932E-2
 2.100000000000000E8    -1.443955791058739E-1   -8.104484226696335E-2   -1.321502069174366E1     3.894167802629313       5.474366565648737E-2    3.632459289367793E-3   -9.871366302784881E-2   -5.281021010537235E-2
 2.200000000000000E8    -1.463435862991600E-1   -7.036620105393372E-2   -1.312722122207554E1     4.230063541173452       5.684251135044400E-2    1.251757269930207E-3   -9.226780887844199E-2   -5.193914063742650E-2
 2.300000000000000E8    -1.440578241683644E-1   -6.696623320047324E-2   -1.302846991536541E1     4.501410259625256       5.512812334073506E-2   -3.734126238102224E-3   -1.038068286099560E-1   -5.145330219627563E-2
 2.400000000000000E8    -1.426069986478972E-1   -6.014720266440861E-2   -1.286567633038045E1     4.811610465329895       5.568336429394936E-2   -4.986038635224690E-3   -9.936621730065315E-2   -3.553499813494659E-2
 2.500000000000000E8    -1.456475174215198E-1   -4.677712418909716E-2   -1.272395256631609E1     5.112179580128947       5.410752470201372E-2   -6.190584715116882E-3   -9.645521550609686E-2   -3.708103132893130E-2
 2.600000000000000E8    -1.401099335663984E-1   -3.990372709915002E-2   -1.261903417811069E1     5.400732808686001       5.502543744188895E-2   -7.731433751378280E-3   -9.142557619641589E-2   -3.660134364959446E-2
 2.700000000000000E8    -1.436314805495189E-1   -3.603689064398903E-2   -1.249963054370583E1     5.644193734788684       5.609383227518287E-2   -6.574555826715967E-3   -9.508084445948931E-2   -3.219290241338972E-2
 2.800000000000000E8    -1.410700373491294E-1   -3.609054354063802E-2   -1.236823940534994E1     5.941283294879956       5.408994033250002E-2   -6.350567733119318E-3   -1.010139658461847E-1   -3.133457055280545E-2
 2.900000000000000E8    -1.442587682553305E-1   -3.066243018492248E-2   -1.227245788147832E1     6.198703563345613       5.256801395003659E-2   -8.964374242585706E-3   -1.006771553540341E-1   -2.651684186387946E-2
 3.000000000000000E8    -1.389976973060478E-1   -1.812061472723390E-2   -1.207848015060459E1     6.480237693517228       5.591016146987958E-2   -7.943485631632368E-3   -1.015707232628438E-1   -2.645145252113392E-2
 3.100000000000000E8    -1.406930496825228E-1   -1.589061564424792E-2   -1.191789373005729E1     6.748199670637476       5.534741726874463E-2   -1.095581127706013E-2   -1.009968042369883E-1   -2.251562678979265E-2
 3.200000000000000E8    -1.381071502314452E-1   -1.095187143444418E-2   -1.176024550668676E1     7.020398658055369       5.642381145463853E-2   -9.452412598210362E-3   -1.043489384776017E-1   -1.948056473679800E-2
 3.300000000000000E8    -1.344826677115210E-1   -8.286598327731013E-3   -1.158036889356768E1     7.258126159917969       5.419067465977914E-2   -1.112971359333160E-2   -1.039610945682768E-1   -1.990448439580542E-2
 3.400000000000000E8    -1.367600589342866E-1   -1.438215163537412E-3   -1.141865283983594E1     7.490333263525881       5.556538139026729E-2   -1.265203229725257E-2   -9.780247089625149E-2   -2.019720002858223E-2
 3.500000000000000E8    -1.391230151936032E-1    2.331583141059308E-3   -1.126388325759239E1     7.726996647636265       5.378897383312078E-2   -1.164922960669563E-2   -9.990124425578004E-2   -1.395974860640609E-2
 3.600000000000000E8    -1.324228564384889E-1    6.435527725496999E-3   -1.110733925118992E1     7.981281846796560       5.579630539734312E-2   -1.405213423250684E-2   -1.026110911996353E-1   -1.881048859674708E-2
 3.700000000000000E8    -1.363285103941057E-1    1.341011560882358E-2   -1.089712808229549E1     8.237179905407368       5.190854343191167E-2   -1.508817570510742E-2   -9.903161817580888E-2   -1.126267301148887E-2
 3.800000000000000E8    -1.292635682596847E-1    1.083318055848763E-2   -1.071867579675742E1     8.413826577677515       5.486691796812692E-2   -1.602390445403494E-2   -1.046334141995834E-1   -1.159069123457876E-2
 3.900000000000000E8    -1.315176856396932E-1    1.632238399855565E-2   -1.051391957371902E1     8.624310961984071       5.370442834923807E-2   -1.763316343718704E-2   -1.006448771830455E-1   -1.090553871633131E-2
 4.000000000000000E8    -1.265722257130014E-1    2.151508150635459E-2   -1.031902066830231E1     8.831234331829100       5.309883235017319E-2   -1.854147758451314E-2   -1.031653909371841E-1   -7.281126862822722E-3
 4.100000000000000E8    -1.311408301860805E-1    2.428443039642313E-2   -1.016116497440875E1     9.031079514392861       5.379220585645355E-2   -1.672075097924747E-2   -9.876263139832475E-2   -7.374187418259973E-3
 4.200000000000000E8    -1.257099024953164E-1    2.778348621514424E-2   -9.986243690149594       9.269167759779386       5.310522968684559E-2   -1.921991990228070E-2   -1.016207712078438E-1   -4.670596829138077E-3
 4.300000000000000E8    -1.222643176858174E-1    3.458569056317751E-2   -9.782692136676411       9.445599268560155       5.363606020502155E-2   -2.060513382631031E-2   -1.038342299051544E-1    6.338256060678046E-4
 4.400000000000000E8    -1.219715893101774E-1    3.365419574395438E-2   -9.565520908601449       9.629905622609762       5.431031575778954E-2   -2.018468839597903E-2   -1.061006813620254E-1    3.041811423577123E-3
 4.500000000000000E8    -1.211528626960844E-1    3.738870750217601E-2   -9.343779425651796       9.809765584356008       5.305417000825246E-2   -2.007949136800790E-2   -1.042622949509778E-1    4.222274269928460E-3
 4.600000000000000E8    -1.196113952649980E-1    4.067417476111516E-2   -9.143856903585210       9.974192967060828       5.217882594747993E-2   -2.041573900048676E-2   -1.025255239509044E-1    6.383692655215108E-3
 4.700000000000000E8    -1.202917610031426E-1    4.355238842928572E-2   -8.891744995861913       1.019024466198821E1     5.063917605329588E-2   -2.211496036933031E-2   -1.048222740404236E-1    8.160895675377020E-3
 4.800000000000000E8    -1.222586829735031E-1    4.840022217835757E-2   -8.689702763581456       1.037990310401972E1     5.039788009270171E-2   -2.195129785400135E-2   -1.006675265452717E-1    6.477574142414330E-3
 4.900000000000000E8    -1.168051921893727E-1    5.088585221138995E-2   -8.492236273689072       1.054189442269766E1     5.067217361857040E-2   -2.574159566212994E-2   -1.049512997102041E-1    6.943855264483639E-3
 5.000000000000000E8    -1.164275588403983E-1    5.360348106710136E-2   -8.284567412798271       1.072041351224979E1     5.032073859869315E-2   -2.566275725469817E-2   -1.029564152419682E-1    1.081064199611027E-2
 5.100000000000000E8    -1.120336673299180E-1    5.905048602772453E-2   -8.062937393172801       1.086850934458882E1     4.965315586765173E-2   -2.556436803716730E-2   -1.024253559468878E-1    1.017215768539491E-2
 5.200000000000000E8    -1.115307596642441E-1    5.789641864917813E-2   -7.817636601191723       1.097309710608170E1     5.010652439907006E-2   -2.782443358308656E-2   -1.048365860131511E-1    8.894999776491441E-3
 5.300000000000000E8    -1.056628789478335E-1    6.284416833139159E-2   -7.571727795108637       1.111559517966028E1     4.751149083723395E-2   -2.745271283331111E-2   -1.049778600927969E-1    1.840225544162863E-2
 5.400000000000000E8    -1.055041667232771E-1    6.183664213750781E-2   -7.374101251502385       1.125966004459202E1     4.847168309449149E-2   -2.806011284796641E-2   -1.015359666708189E-1    1.349840162564454E-2
 5.500000000000000E8    -1.045213638933901E-1    6.496653000791391E-2   -7.140265840843912       1.139236435292956E1     4.820720629442222E-2   -2.728699944646708E-2   -9.854228200729916E-2    1.468799834696094E-2
 5.600000000000000E8    -1.021307974087769E-1    7.045396507750232E-2   -6.935976909815626       1.152622690057650E1     4.839023816783421E-2   -2.976939513437216E-2   -9.966498361299425E-2    1.938689952564510E-2
 5.700000000000000E8    -1.004962452669269E-1    7.107835308654105E-2   -6.675485896660398       1.163568059356460E1     4.653243930373087E-2   -2.947917643234333E-2   -1.023850863888076E-1    1.804677834812402E-2
 5.800000000000000E8    -9.814555812563081E-2    7.124819470232685E-2   -6.457400177851895       1.177737008453442E1     4.660931314932856E-2   -3.002387083021804E-2   -1.022877411738438E-1    2.076179120118463E-2
 5.900000000000000E8    -9.464097397045559E-2    7.569286959901379E-2   -6.202183281313496       1.189723767602327E1     4.598948475947832E-2   -3.176648471281057E-2   -1.042501601530763E-1    2.498998097156457E-2
 6.000000000000000E8    -9.399047954142636E-2    7.832189567935097E-2   -5.951119669896216       1.198629234738995E1     4.631603885709758E-2   -3.293540000661801E-2   -1.038009332780532E-1    2.703456009119425E-2
 6.100000000000000E8    -9.393979809660159E-2    8.011830310917385E-2   -5.730613455940588       1.211060266121553E1     4.667908250271686E-2   -3.267252073644802E-2   -1.018082311932667E-1    2.872196693027170E-2
 6.200000000000000E8    -9.265493049770654E-2    8.034557626267852E-2   -5.482162624009192       1.222502716465118E1     4.462060919460288E-2   -3.363413907014184E-2   -1.004281389085705E-1    3.035183325616776E-2
 6.300000000000000E8    -9.008156702537329E-2    8.625110567372957E-2   -5.219142211865383       1.230339259425100E1     4.581326392816775E-2   -3.337490324662445E-2   -1.034540897600014E-1    3.202517867850561E-2
 6.400000000000000E8    -8.662914872088757E-2    8.704171258033966E-2   -4.986570008040533       1.241525871077490E1     4.578091532677180E-2   -3.347211606524162E-2   -1.028316311610439E-1    3.323532036522085E-2
 6.500000000000000E8    -8.306675122304630E-2    9.162205529611159E-2   -4.714505891130006       1.248247071126033E1     4.362522317277044E-2   -3.375111950657197E-2   -1.010065775002398E-1    3.630984349378491E-2
 6.600000000000000E8    -8.248589913839965E-2    9.102149955727995E-2   -4.465616850685466       1.255364370291445E1     4.468972725839743E-2   -3.506229838249279E-2   -1.029332210917462E-1    3.513775881608180E-2
 6.700000000000000E8    -7.992271463349776E-2    9.274631180368090E-2   -4.244483516717756       1.260426669407521E1     4.352190406413357E-2   -3.630739323707374E-2   -9.916377412752977E-2    3.596484550404926E-2
 6.800000000000000E8    -7.881510417034260E-2    9.184720681006471E-2   -3.995721283385032       1.270095413719551E1     4.223784207577848E-2   -3.712144770202989E-2   -9.897017220132931E-2    3.620781807631347E-2
 6.900000000000000E8    -7.460422884286226E-2    9.610938212054851E-2   -3.729327903433525       1.275380739072766E1     4.431621773405511E-2   -3.742643065181738E-2   -9.870726001058268E-2    3.768470006569515E-2
 7.000000000000000E8    -7.258553537373427E-2    9.779600302461286E-2   -3.455074227815758       1.282757882646071E1     4.283443298903470E-2   -3.683043282410690E-2   -1.000198207287296E-1    3.931560880556662E-2
 7.100000000000000E8    -7.098320983076037E-2    9.768695271359831E-2   -3.231495925299430       1.287579503458520E1     4.289304005121481E-2   -3.881450779257745E-2   -9.834999354528036E-2    4.049135039856028E-2
 7.200000000000000E8    -6.774511126060904E-2    9.803704743895311E-2   -2.981248261698358       1.290099333562025E1     4.115639984146086E-2   -3.789387179206937E-2   -9.677125148644045E-2    4.232842595148685E-2
 7.300000000000000E8    -6.595688855934545E-2    1.009452798628973E-1   -2.722936753998255       1.293952508588815E1     4.069958221375031E-2   -3.940380409935693E-2   -9.516653179137796E-2    4.375777447064743E-2
 7.400000000000000E8    -6.525991037407189E-2    1.027430231528729E-1   -2.468599414010373       1.299857025789659E1     4.026808962266982E-2   -3.924451796822935E-2   -9.659656618297975E-2    4.540796413237895E-2
 7.500000000000000E8    -6.103321492859870E-2    1.027159023179425E-1   -2.216205978096246       1.303892893800513E1     3.969112526556525E-2   -4.070773800132538E-2   -9.560978679609559E-2    4.779539070619510E-2
 7.600000000000000E8    -5.804700994524860E-2    1.051436290478165E-1   -1.965690348797663       1.307592883929753E1     4.054037435367405E-2   -4.028946486217164E-2   -9.640600558131455E-2    5.033851099521276E-2
 7.700000000000000E8    -5.745717880339200E-2    1.071509528265388E-1   -1.689627883410727       1.309043307121886E1     3.913442789562674E-2   -4.140287978455306E-2   -9.694681007441469E-2    5.147400555381403E-2
 7.800000000000000E8    -5.240674773355600E-2    1.086737012809998E-1   -1.461504179598150       1.308371221838771E1     3.826276279293684E-2   -4.134120683397316E-2   -9.594820367001632E-2    5.333725065395492E-2
 7.900000000000000E8    -5.286099468046748E-2    1.083939274403810E-1   -1.208166209163174       1.309749858957908E1     3.879311191319332E-2   -4.210786270059706E-2   -9.663257664451530E-2    5.507265068373095E-2
 8.000000000000000E8    -5.039637739613337E-2    1.093600861087470E-1   -9.391196419706684E-1    1.311017997668940E1     3.765725387873466E-2   -4.177335949266851E-2   -9.800995203347380E-2    5.545341359351623E-2
 8.100000000000000E8    -4.662233043375996E-2    1.118444874720805E-1   -7.020371764378596E-1    1.313077145217491E1     3.748224313813289E-2   -4.382576197816962E-2   -9.526918864696050E-2    5.578345336260608E-2
 8.200000000000000E8    -4.573698924265361E-2    1.130107953186300E-1   -4.376874926306383E-1    1.313916094402864E1     3.611532991472671E-2   -4.365508481374205E-2   -9.626802447858630E-2    5.791619630013119E-2
 8.300000000000000E8    -4.271902718188415E-2    1.152784999684884E-1   -1.955246876216556E-1    1.312420904899016E1     3.559182522114306E-2   -4.408404417891066E-2   -9.488481372078057E-2    5.915679797195907E-2
 8.400000000000000E8    -3.893305221898279E-2    1.145971813237024E-1    6.607786836813864E-2    1.309576887706289E1     3.484697915132202E-2   -4.469276505817996E-2   -9.204730717722977E-2    6.000709420524108E-2
 8.500000000000000E8    -3.474199408313255E-2    1.133130070495874E-1    3.062481151657525E-1    1.307215423367712E1     3.423971652984776E-2   -4.470037885206683E-2   -9.124208443478796E-2    6.022894268971471E-2
 8.600000000000000E8    -3.237784413059550E-2    1.141193568243541E-1    5.448816184590307E-1    1.304815096089660E1     3.325337083066456E-2   -4.570059177428544E-2   -8.991231485969915E-2    6.199429308025496E-2
 8.700000000000000E8    -3.202730225106262E-2    1.156964450284147E-1    8.107382725969317E-1    1.303444788516532E1     3.413101052144441E-2   -4.639923055732235E-2   -8.923948138772017E-2    6.228142783851578E-2
 8.800000000000000E8    -2.901062362675141E-2    1.160665060387712E-1    1.040360411741089       1.298552307991641E1     3.400532196993453E-2   -4.706323299996067E-2   -8.991577760527983E-2    6.463169782925539E-2
 8.900000000000000E8    -2.699641759886906E-2    1.165425892771657E-1    1.291840240502374       1.296003984326592E1     3.263106787277053E-2   -4.720600932276377E-2   -8.950841268248895E-2    6.686605815399888E-2
 9.000000000000000E8    -2.449935473433249E-2    1.183869557312181E-1    1.544596437439135       1.292813676388968E1     3.263749218128673E-2   -4.746908024065166E-2   -8.752859143878552E-2    6.903488068914833E-2
 9.100000000000000E8    -2.288468470668877E-2    1.183457127965766E-1    1.799234854428035       1.288458974037754E1     3.194558384565434E-2   -4.808092040981047E-2   -8.771406905070395E-2    7.274509433209714E-2
